T3F58 000:034.729   SEGGER J-Link V7.80c Log File
T3F58 000:034.881   DLL Compiled: Sep 27 2022 16:01:16
T3F58 000:034.923   Logging started @ 2026-09-08 01:35
T3F58 000:034.928 - 34.930ms
T3F58 000:034.939 JLINK_SetWarnOutHandler(...)
T3F58 000:034.944 - 0.007ms
T3F58 000:034.950 JLINK_OpenEx(...)
T3F58 000:042.374   Firmware: J-Link ARM-OB STM32 compiled Aug 22 2012 19:52:04
T3F58 000:042.991   Firmware: J-Link ARM-OB STM32 compiled Aug 22 2012 19:52:04
T3F58 000:046.370   Hardware: V7.00
T3F58 000:046.390   S/N: 20090928
T3F58 000:046.396   OEM: SEGGER
T3F58 000:046.402   Feature(s): RDI,FlashDL,FlashBP,JFlash,GDBFull
T3F58 000:048.195   TELNET listener socket opened on port 19021
T3F58 000:048.332   WEBSRV WEBSRV_Init(): Starting webserver thread(s)
T3F58 000:048.417   WEBSRV Failed to put socket into listener state (port 19080)
T3F58 000:048.518   WEBSRV Webserver running on local port 19081
T3F58 000:054.174 - 19.255ms returns "O.K."
T3F58 000:054.316 JLINK_GetEmuCaps()
T3F58 000:054.329 - 0.015ms returns 0x88EA5833
T3F58 000:054.339 JLINK_TIF_GetAvailable(...)
T3F58 000:057.055 - 2.724ms
T3F58 000:057.072 JLINK_SetErrorOutHandler(...)
T3F58 000:057.077 - 0.006ms
T3F58 000:057.105 JLINK_ExecCommand("ProjectFile = "E:\Project\capsule_project\nrf_tx\examples\peripheral\radio\TX\pca10040\blank\arm5_no_packs\JLinkSettings.ini"", ...). 
T3F58 000:067.792   Ref file found at: C:\Keil_v5\ARM\Segger\JLinkDevices.ref
T3F58 000:067.894   REF file references invalid XML file: D:\Program Files\SEGGER\JLink\JLinkDevices.xml
T3F58 000:068.049 - 10.948ms returns 0x00
T3F58 000:071.954 JLINK_ExecCommand("Device = nRF52832_xxAA", ...). 
T3F58 000:074.249   Device "NRF52832_XXAA" selected.
T3F58 000:074.937 - 2.967ms returns 0x00
T3F58 000:074.958 JLINK_ExecCommand("DisableConnectionTimeout", ...). 
T3F58 000:074.967 - 0.003ms returns 0x01
T3F58 000:074.973 JLINK_GetHardwareVersion()
T3F58 000:074.977 - 0.006ms returns 70000
T3F58 000:074.983 JLINK_GetDLLVersion()
T3F58 000:074.988 - 0.007ms returns 78003
T3F58 000:074.993 JLINK_GetOEMString(...)
T3F58 000:075.009 JLINK_GetFirmwareString(...)
T3F58 000:075.014 - 0.006ms
T3F58 000:083.957 JLINK_GetDLLVersion()
T3F58 000:083.988 - 0.032ms returns 78003
T3F58 000:083.993 JLINK_GetCompileDateTime()
T3F58 000:083.997 - 0.006ms
T3F58 000:086.347 JLINK_GetFirmwareString(...)
T3F58 000:086.375 - 0.029ms
T3F58 000:088.569 JLINK_GetHardwareVersion()
T3F58 000:088.590 - 0.022ms returns 70000
T3F58 000:090.488 JLINK_GetSN()
T3F58 000:090.506 - 0.020ms returns 20090928
T3F58 000:097.002 JLINK_GetOEMString(...)
T3F58 000:102.532 JLINK_TIF_Select(JLINKARM_TIF_SWD)
T3F58 000:103.895 - 1.377ms returns 0x00
T3F58 000:103.916 JLINK_HasError()
T3F58 000:103.936 JLINK_SetSpeed(5000)
T3F58 000:104.223 - 0.290ms
T3F58 000:104.230 JLINK_GetId()
T3F58 000:106.892   InitTarget() start
T3F58 000:106.936    J-Link Script File: Executing InitTarget()
T3F58 000:115.071   InitTarget() end
T3F58 000:223.352   Failed to attach to CPU. Trying connect under reset.
T3F58 000:546.625   Found SW-DP with ID 0x2BA01477
T3F58 000:550.885   SWD speed too high. Reduced from 4000 kHz to 1138 kHz for stability
T3F58 000:556.235   Old FW that does not support reading DPIDR via DAP jobs
T3F58 000:565.958   DPv0 detected
T3F58 000:569.556   CoreSight SoC-400 or earlier
T3F58 000:573.053   Scanning AP map to find all available APs
T3F58 000:582.186   AP[2]: Stopped AP scan as end of AP map has been reached
T3F58 000:586.009   AP[0]: AHB-AP (IDR: 0x24770011)
T3F58 000:588.304   AP[1]: JTAG-AP (IDR: 0x02880000)
T3F58 000:590.269   Iterating through AP map to find AHB-AP to use
T3F58 000:601.235   AP[0]: Core found
T3F58 000:603.464   AP[0]: AHB-AP ROM base: 0xE00FF000
T3F58 000:610.212   CPUID register: 0x410FC241. Implementer code: 0x41 (ARM)
T3F58 000:612.948   Found Cortex-M4 r0p1, Little endian.
T3F58 000:714.408   -- Max. mem block: 0x00002C08
T3F58 000:714.788   CPU_ReadMem(4 bytes @ 0xE000EDF0)
T3F58 000:715.811   CPU_ReadMem(4 bytes @ 0xE0002000)
T3F58 000:719.280   FPUnit: 6 code (BP) slots and 2 literal slots
T3F58 000:719.361   CPU_ReadMem(4 bytes @ 0xE000EDFC)
T3F58 000:720.499   CPU_ReadMem(4 bytes @ 0xE0001000)
T3F58 000:721.597   CPU_WriteMem(4 bytes @ 0xE0001000)
T3F58 000:722.765   CPU_ReadMem(4 bytes @ 0xE000ED88)
T3F58 000:723.932   CPU_WriteMem(4 bytes @ 0xE000ED88)
T3F58 000:725.008   CPU_ReadMem(4 bytes @ 0xE000ED88)
T3F58 000:726.193   CPU_WriteMem(4 bytes @ 0xE000ED88)
T3F58 000:730.330   CoreSight components:
T3F58 000:732.846   ROMTbl[0] @ E00FF000
T3F58 000:732.882   CPU_ReadMem(64 bytes @ 0xE00FF000)
T3F58 000:735.483   CPU_ReadMem(32 bytes @ 0xE000EFE0)
T3F58 000:739.575   [0][0]: E000E000 CID B105E00D PID 000BB00C SCS-M7
T3F58 000:739.595   CPU_ReadMem(32 bytes @ 0xE0001FE0)
T3F58 000:745.090   [0][1]: E0001000 CID B105E00D PID 003BB002 DWT
T3F58 000:745.130   CPU_ReadMem(32 bytes @ 0xE0002FE0)
T3F58 000:749.772   [0][2]: E0002000 CID B105E00D PID 002BB003 FPB
T3F58 000:749.806   CPU_ReadMem(32 bytes @ 0xE0000FE0)
T3F58 000:754.771   [0][3]: E0000000 CID B105E00D PID 003BB001 ITM
T3F58 000:754.810   CPU_ReadMem(32 bytes @ 0xE0040FE0)
T3F58 000:760.441   [0][4]: E0040000 CID B105900D PID 000BB9A1 TPIU
T3F58 000:760.478   CPU_ReadMem(32 bytes @ 0xE0041FE0)
T3F58 000:764.798   [0][5]: E0041000 CID B105900D PID 000BB925 ETM
T3F58 000:765.432 - 661.208ms returns 0x2BA01477
T3F58 000:765.459 JLINK_GetDLLVersion()
T3F58 000:765.463 - 0.006ms returns 78003
T3F58 000:765.469 JLINK_CORE_GetFound()
T3F58 000:765.474 - 0.006ms returns 0xE0000FF
T3F58 000:765.479 JLINK_GetDebugInfo(0x100 = JLINKARM_ROM_TABLE_ADDR_INDEX)
T3F58 000:765.487   Value=0xE00FF000
T3F58 000:765.493 - 0.016ms returns 0
T3F58 000:767.876 JLINK_GetDebugInfo(0x100 = JLINKARM_ROM_TABLE_ADDR_INDEX)
T3F58 000:767.908   Value=0xE00FF000
T3F58 000:767.914 - 0.040ms returns 0
T3F58 000:767.919 JLINK_GetDebugInfo(0x101 = JLINKARM_DEBUG_INFO_ETM_ADDR_INDEX)
T3F58 000:767.924   Value=0xE0041000
T3F58 000:767.930 - 0.013ms returns 0
T3F58 000:767.952 JLINK_ReadMemEx(0xE0041FD0, 0x20 Bytes, Flags = 0x02000004)
T3F58 000:767.985   CPU_ReadMem(32 bytes @ 0xE0041FD0)
T3F58 000:787.549   Data:  04 00 00 00 00 00 00 00 00 00 00 00 00 00 00 00 ...
T3F58 000:787.586 - 19.636ms returns 32 (0x20)
T3F58 000:787.601 JLINK_GetDebugInfo(0x102 = JLINKARM_DEBUG_INFO_MTB_ADDR_INDEX)
T3F58 000:787.607   Value=0x00000000
T3F58 000:787.612 - 0.013ms returns 0
T3F58 000:787.617 JLINK_GetDebugInfo(0x103 = JLINKARM_DEBUG_INFO_TPIU_ADDR_INDEX)
T3F58 000:787.622   Value=0xE0040000
T3F58 000:787.627 - 0.011ms returns 0
T3F58 000:787.632 JLINK_GetDebugInfo(0x104 = JLINKARM_DEBUG_INFO_ITM_ADDR_INDEX)
T3F58 000:787.637   Value=0xE0000000
T3F58 000:787.643 - 0.012ms returns 0
T3F58 000:787.648 JLINK_GetDebugInfo(0x105 = JLINKARM_DEBUG_INFO_DWT_ADDR_INDEX)
T3F58 000:787.652   Value=0xE0001000
T3F58 000:787.657 - 0.012ms returns 0
T3F58 000:787.662 JLINK_GetDebugInfo(0x106 = JLINKARM_DEBUG_INFO_FPB_ADDR_INDEX)
T3F58 000:787.666   Value=0xE0002000
T3F58 000:787.672 - 0.011ms returns 0
T3F58 000:787.677 JLINK_GetDebugInfo(0x107 = JLINKARM_DEBUG_INFO_NVIC_ADDR_INDEX)
T3F58 000:787.681   Value=0xE000E000
T3F58 000:787.687 - 0.012ms returns 0
T3F58 000:787.692 JLINK_GetDebugInfo(0x10C = JLINKARM_DEBUG_INFO_DBG_ADDR_INDEX)
T3F58 000:787.696   Value=0xE000EDF0
T3F58 000:787.702 - 0.011ms returns 0
T3F58 000:787.707 JLINK_GetDebugInfo(0x01 = Unknown)
T3F58 000:787.722   Value=0x00000001
T3F58 000:787.728 - 0.023ms returns 0
T3F58 000:787.733 JLINK_ReadMemU32(0xE000ED00, 0x1 Items)
T3F58 000:787.746   CPU_ReadMem(4 bytes @ 0xE000ED00)
T3F58 000:789.365   Data:  41 C2 0F 41
T3F58 000:789.474   Debug reg: CPUID
T3F58 000:789.482 - 1.751ms returns 1 (0x1)
T3F58 000:789.491 JLINK_GetDebugInfo(0x10F = JLINKARM_DEBUG_INFO_HAS_CORTEX_M_SECURITY_EXT_INDEX)
T3F58 000:789.497   Value=0x00000000
T3F58 000:789.503 - 0.014ms returns 0
T3F58 000:789.509 JLINK_HasError()
T3F58 000:789.514 JLINK_SetResetType(JLINKARM_CM3_RESET_TYPE_NORMAL)
T3F58 000:789.519 - 0.006ms returns JLINKARM_CM3_RESET_TYPE_NORMAL
T3F58 000:789.529 JLINK_Reset()
T3F58 000:789.555   CPU is running
T3F58 000:789.563   CPU_WriteMem(4 bytes @ 0xE000EDF0)
T3F58 000:790.730   CPU is running
T3F58 000:790.751   CPU_WriteMem(4 bytes @ 0xE000EDFC)
T3F58 000:794.832   Reset: Halt core after reset via DEMCR.VC_CORERESET.
T3F58 000:797.974   Reset: Reset device via AIRCR.SYSRESETREQ.
T3F58 000:798.000   CPU is running
T3F58 000:798.011   CPU_WriteMem(4 bytes @ 0xE000ED0C)
T3F58 000:852.346   CPU_ReadMem(4 bytes @ 0xE000EDF0)
T3F58 000:853.500   CPU_ReadMem(4 bytes @ 0xE000EDF0)
T3F58 000:854.599   CPU is running
T3F58 000:854.643   CPU_WriteMem(4 bytes @ 0xE000EDF0)
T3F58 000:855.811   CPU is running
T3F58 000:855.878   CPU_WriteMem(4 bytes @ 0xE000EDFC)
T3F58 000:863.004   CPU_ReadMem(4 bytes @ 0xE000EDF0)
T3F58 000:872.262   CPU_WriteMem(4 bytes @ 0xE0002000)
T3F58 000:873.473   CPU_ReadMem(4 bytes @ 0xE000EDFC)
T3F58 000:874.606   CPU_ReadMem(4 bytes @ 0xE0001000)
T3F58 000:875.764 - 86.255ms
T3F58 000:875.855 JLINK_Halt()
T3F58 000:875.867 - 0.015ms returns 0x00
T3F58 000:875.877 JLINK_ReadMemU32(0xE000EDF0, 0x1 Items)
T3F58 000:875.898   CPU_ReadMem(4 bytes @ 0xE000EDF0)
T3F58 000:877.120   Data:  03 00 03 00
T3F58 000:877.161   Debug reg: DHCSR
T3F58 000:877.172 - 1.299ms returns 1 (0x1)
T3F58 000:877.206 JLINK_WriteU32_64(0xE000EDF0, 0xA05F0003)
T3F58 000:877.216   Debug reg: DHCSR
T3F58 000:877.502   CPU_WriteMem(4 bytes @ 0xE000EDF0)
T3F58 000:878.746 - 1.553ms returns 0 (0x00000000)
T3F58 000:878.768 JLINK_WriteU32_64(0xE000EDFC, 0x01000000)
T3F58 000:878.777   Debug reg: DEMCR
T3F58 000:878.795   CPU_WriteMem(4 bytes @ 0xE000EDFC)
T3F58 000:879.917 - 1.166ms returns 0 (0x00000000)
T3F58 000:894.970 JLINK_GetHWStatus(...)
T3F58 000:895.437 - 0.475ms returns 0
T3F58 000:908.270 JLINK_GetNumBPUnits(Type = 0xFFFFFF00)
T3F58 000:908.331 - 0.063ms returns 0x06
T3F58 000:908.339 JLINK_GetNumBPUnits(Type = 0xF0)
T3F58 000:908.344 - 0.007ms returns 0x2000
T3F58 000:908.349 JLINK_GetNumWPUnits()
T3F58 000:908.353 - 0.006ms returns 4
T3F58 000:919.370 JLINK_GetSpeed()
T3F58 000:919.402 - 0.034ms returns 1067
T3F58 000:925.654 JLINK_ReadMemU32(0xE000E004, 0x1 Items)
T3F58 000:925.714   CPU_ReadMem(4 bytes @ 0xE000E004)
T3F58 000:926.975   Data:  01 00 00 00
T3F58 000:927.047 - 1.396ms returns 1 (0x1)
T3F58 000:927.068 JLINK_ReadMemU32(0xE000E004, 0x1 Items)
T3F58 000:927.088   CPU_ReadMem(4 bytes @ 0xE000E004)
T3F58 000:928.183   Data:  01 00 00 00
T3F58 000:928.195 - 1.129ms returns 1 (0x1)
T3F58 000:928.208 JLINK_WriteMemEx(0xE0001000, 0x0000001C Bytes, Flags = 0x02000004)
T3F58 000:928.212   Data:  01 00 00 00 00 00 00 00 00 00 00 00 00 00 00 00 ...
T3F58 000:928.226   CPU_WriteMem(28 bytes @ 0xE0001000)
T3F58 000:930.140 - 1.955ms returns 0x1C
T3F58 000:930.186 JLINK_Halt()
T3F58 000:930.196 - 0.013ms returns 0x00
T3F58 000:930.206 JLINK_IsHalted()
T3F58 000:930.214 - 0.013ms returns TRUE
T3F58 000:933.706 JLINK_WriteMem(0x20000000, 0x5B8 Bytes, ...)
T3F58 000:933.730   Data:  00 BE 0A E0 0D 78 2D 06 68 40 08 24 40 00 00 D3 ...
T3F58 000:933.988   CPU_WriteMem(1464 bytes @ 0x20000000)
T3F58 000:977.260 - 43.585ms returns 0x5B8
T3F58 000:977.370 JLINK_HasError()
T3F58 000:977.448 JLINK_WriteReg(R0, 0x00000000)
T3F58 000:977.483 - 0.040ms returns 0
T3F58 000:977.494 JLINK_WriteReg(R1, 0x00B71B00)
T3F58 000:977.503 - 0.012ms returns 0
T3F58 000:977.512 JLINK_WriteReg(R2, 0x00000001)
T3F58 000:977.521 - 0.012ms returns 0
T3F58 000:977.530 JLINK_WriteReg(R3, 0x00000000)
T3F58 000:977.538 - 0.012ms returns 0
T3F58 000:977.548 JLINK_WriteReg(R4, 0x00000000)
T3F58 000:977.556 - 0.012ms returns 0
T3F58 000:977.565 JLINK_WriteReg(R5, 0x00000000)
T3F58 000:977.573 - 0.012ms returns 0
T3F58 000:977.582 JLINK_WriteReg(R6, 0x00000000)
T3F58 000:977.590 - 0.012ms returns 0
T3F58 000:977.599 JLINK_WriteReg(R7, 0x00000000)
T3F58 000:977.608 - 0.012ms returns 0
T3F58 000:977.617 JLINK_WriteReg(R8, 0x00000000)
T3F58 000:977.652 - 0.039ms returns 0
T3F58 000:977.661 JLINK_WriteReg(R9, 0x200005B4)
T3F58 000:977.675 - 0.020ms returns 0
T3F58 000:977.687 JLINK_WriteReg(R10, 0x00000000)
T3F58 000:977.696 - 0.012ms returns 0
T3F58 000:977.705 JLINK_WriteReg(R11, 0x00000000)
T3F58 000:977.713 - 0.012ms returns 0
T3F58 000:977.722 JLINK_WriteReg(R12, 0x00000000)
T3F58 000:977.730 - 0.012ms returns 0
T3F58 000:977.740 JLINK_WriteReg(R13 (SP), 0x20004000)
T3F58 000:977.749 - 0.013ms returns 0
T3F58 000:977.758 JLINK_WriteReg(R14, 0x20000001)
T3F58 000:977.766 - 0.012ms returns 0
T3F58 000:977.775 JLINK_WriteReg(R15 (PC), 0x20000020)
T3F58 000:977.791 - 0.019ms returns 0
T3F58 000:977.800 JLINK_WriteReg(XPSR, 0x01000000)
T3F58 000:977.809 - 0.012ms returns 0
T3F58 000:977.818 JLINK_WriteReg(MSP, 0x20004000)
T3F58 000:977.827 - 0.012ms returns 0
T3F58 000:977.836 JLINK_WriteReg(PSP, 0x20004000)
T3F58 000:977.844 - 0.012ms returns 0
T3F58 000:977.853 JLINK_WriteReg(CFBP, 0x00000000)
T3F58 000:977.861 - 0.012ms returns 0
T3F58 000:977.872 JLINK_SetBPEx(Addr = 0x20000000, Type = 0xFFFFFFF2)
T3F58 000:977.895   CPU_ReadMem(2 bytes @ 0x20000000)
T3F58 000:979.086 - 1.244ms returns 0x00000001
T3F58 000:979.126 JLINK_Go()
T3F58 000:979.141   CPU_WriteMem(2 bytes @ 0x20000000)
T3F58 000:980.418   CPU_ReadMem(4 bytes @ 0xE0001000)
T3F58 000:981.534   CPU_WriteMem(4 bytes @ 0xE0002008)
T3F58 000:981.575   CPU_WriteMem(4 bytes @ 0xE000200C)
T3F58 000:981.587   CPU_WriteMem(4 bytes @ 0xE0002010)
T3F58 000:981.599   CPU_WriteMem(4 bytes @ 0xE0002014)
T3F58 000:981.611   CPU_WriteMem(4 bytes @ 0xE0002018)
T3F58 000:981.623   CPU_WriteMem(4 bytes @ 0xE000201C)
T3F58 000:986.800   CPU_WriteMem(4 bytes @ 0xE0001004)
T3F58 000:995.516 - 16.418ms
T3F58 000:995.555 JLINK_IsHalted()
T3F58 001:003.593   CPU_ReadMem(2 bytes @ 0x20000000)
T3F58 001:004.775 - 9.260ms returns TRUE
T3F58 001:004.837 JLINK_ReadReg(R15 (PC))
T3F58 001:004.855 - 0.022ms returns 0x20000000
T3F58 001:004.869 JLINK_ClrBPEx(BPHandle = 0x00000001)
T3F58 001:004.879 - 0.014ms returns 0x00
T3F58 001:004.892 JLINK_ReadReg(R0)
T3F58 001:004.902 - 0.013ms returns 0x00000000
T3F58 001:005.350 JLINK_HasError()
T3F58 001:005.372 JLINK_WriteReg(R0, 0x00000000)
T3F58 001:005.384 - 0.016ms returns 0
T3F58 001:005.395 JLINK_WriteReg(R1, 0x00001000)
T3F58 001:005.404 - 0.013ms returns 0
T3F58 001:005.413 JLINK_WriteReg(R2, 0x000000FF)
T3F58 001:005.422 - 0.013ms returns 0
T3F58 001:005.432 JLINK_WriteReg(R3, 0x00000000)
T3F58 001:005.441 - 0.012ms returns 0
T3F58 001:005.450 JLINK_WriteReg(R4, 0x00000000)
T3F58 001:005.459 - 0.013ms returns 0
T3F58 001:005.469 JLINK_WriteReg(R5, 0x00000000)
T3F58 001:005.478 - 0.013ms returns 0
T3F58 001:005.487 JLINK_WriteReg(R6, 0x00000000)
T3F58 001:005.496 - 0.012ms returns 0
T3F58 001:005.506 JLINK_WriteReg(R7, 0x00000000)
T3F58 001:005.515 - 0.013ms returns 0
T3F58 001:005.525 JLINK_WriteReg(R8, 0x00000000)
T3F58 001:005.534 - 0.013ms returns 0
T3F58 001:005.543 JLINK_WriteReg(R9, 0x200005B4)
T3F58 001:005.552 - 0.012ms returns 0
T3F58 001:005.562 JLINK_WriteReg(R10, 0x00000000)
T3F58 001:005.571 - 0.013ms returns 0
T3F58 001:005.580 JLINK_WriteReg(R11, 0x00000000)
T3F58 001:005.589 - 0.012ms returns 0
T3F58 001:005.599 JLINK_WriteReg(R12, 0x00000000)
T3F58 001:005.608 - 0.013ms returns 0
T3F58 001:005.618 JLINK_WriteReg(R13 (SP), 0x20004000)
T3F58 001:005.627 - 0.013ms returns 0
T3F58 001:005.637 JLINK_WriteReg(R14, 0x20000001)
T3F58 001:005.646 - 0.012ms returns 0
T3F58 001:005.655 JLINK_WriteReg(R15 (PC), 0x20000288)
T3F58 001:005.664 - 0.012ms returns 0
T3F58 001:005.674 JLINK_WriteReg(XPSR, 0x01000000)
T3F58 001:005.683 - 0.013ms returns 0
T3F58 001:005.692 JLINK_WriteReg(MSP, 0x20004000)
T3F58 001:005.701 - 0.012ms returns 0
T3F58 001:005.711 JLINK_WriteReg(PSP, 0x20004000)
T3F58 001:005.719 - 0.012ms returns 0
T3F58 001:005.729 JLINK_WriteReg(CFBP, 0x00000000)
T3F58 001:005.738 - 0.013ms returns 0
T3F58 001:005.748 JLINK_SetBPEx(Addr = 0x20000000, Type = 0xFFFFFFF2)
T3F58 001:005.765 - 0.020ms returns 0x00000002
T3F58 001:005.775 JLINK_Go()
T3F58 001:005.870   CPU_ReadMem(4 bytes @ 0xE0001000)
T3F58 001:014.784 - 9.047ms
T3F58 001:014.833 JLINK_IsHalted()
T3F58 001:022.870   CPU_ReadMem(2 bytes @ 0x20000000)
T3F58 001:024.172 - 9.349ms returns TRUE
T3F58 001:024.191 JLINK_ReadReg(R15 (PC))
T3F58 001:024.206 - 0.019ms returns 0x20000000
T3F58 001:024.217 JLINK_ClrBPEx(BPHandle = 0x00000002)
T3F58 001:024.227 - 0.014ms returns 0x00
T3F58 001:024.238 JLINK_ReadReg(R0)
T3F58 001:024.388 - 0.155ms returns 0x00000001
T3F58 001:024.404 JLINK_HasError()
T3F58 001:024.417 JLINK_WriteReg(R0, 0x00000000)
T3F58 001:024.428 - 0.014ms returns 0
T3F58 001:024.437 JLINK_WriteReg(R1, 0x00001000)
T3F58 001:024.445 - 0.011ms returns 0
T3F58 001:024.454 JLINK_WriteReg(R2, 0x000000FF)
T3F58 001:024.461 - 0.011ms returns 0
T3F58 001:024.470 JLINK_WriteReg(R3, 0x00000000)
T3F58 001:024.478 - 0.011ms returns 0
T3F58 001:024.486 JLINK_WriteReg(R4, 0x00000000)
T3F58 001:024.527 - 0.047ms returns 0
T3F58 001:024.541 JLINK_WriteReg(R5, 0x00000000)
T3F58 001:024.551 - 0.014ms returns 0
T3F58 001:024.561 JLINK_WriteReg(R6, 0x00000000)
T3F58 001:024.569 - 0.011ms returns 0
T3F58 001:024.578 JLINK_WriteReg(R7, 0x00000000)
T3F58 001:024.587 - 0.012ms returns 0
T3F58 001:024.596 JLINK_WriteReg(R8, 0x00000000)
T3F58 001:024.605 - 0.026ms returns 0
T3F58 001:024.630 JLINK_WriteReg(R9, 0x200005B4)
T3F58 001:024.644 - 0.036ms returns 0
T3F58 001:024.686 JLINK_WriteReg(R10, 0x00000000)
T3F58 001:024.700 - 0.018ms returns 0
T3F58 001:024.710 JLINK_WriteReg(R11, 0x00000000)
T3F58 001:024.719 - 0.013ms returns 0
T3F58 001:024.729 JLINK_WriteReg(R12, 0x00000000)
T3F58 001:024.738 - 0.013ms returns 0
T3F58 001:024.748 JLINK_WriteReg(R13 (SP), 0x20004000)
T3F58 001:024.757 - 0.014ms returns 0
T3F58 001:024.767 JLINK_WriteReg(R14, 0x20000001)
T3F58 001:024.787 - 0.023ms returns 0
T3F58 001:024.797 JLINK_WriteReg(R15 (PC), 0x200000D4)
T3F58 001:024.806 - 0.013ms returns 0
T3F58 001:024.831 JLINK_WriteReg(XPSR, 0x01000000)
T3F58 001:024.842 - 0.015ms returns 0
T3F58 001:024.852 JLINK_WriteReg(MSP, 0x20004000)
T3F58 001:024.877 - 0.041ms returns 0
T3F58 001:024.901 JLINK_WriteReg(PSP, 0x20004000)
T3F58 001:024.910 - 0.012ms returns 0
T3F58 001:024.919 JLINK_WriteReg(CFBP, 0x00000000)
T3F58 001:024.927 - 0.012ms returns 0
T3F58 001:024.937 JLINK_SetBPEx(Addr = 0x20000000, Type = 0xFFFFFFF2)
T3F58 001:024.948 - 0.015ms returns 0x00000003
T3F58 001:024.957 JLINK_Go()
T3F58 001:024.978   CPU_ReadMem(4 bytes @ 0xE0001000)
T3F58 001:033.719 - 8.788ms
T3F58 001:033.797 JLINK_IsHalted()
T3F58 001:034.925 - 1.131ms returns FALSE
T3F58 001:034.933 JLINK_HasError()
T3F58 001:056.631 JLINK_IsHalted()
T3F58 001:064.968   CPU_ReadMem(2 bytes @ 0x20000000)
T3F58 001:066.568 - 9.950ms returns TRUE
T3F58 001:066.606 JLINK_ReadReg(R15 (PC))
T3F58 001:066.620 - 0.019ms returns 0x20000000
T3F58 001:067.512 JLINK_ClrBPEx(BPHandle = 0x00000003)
T3F58 001:067.541 - 0.031ms returns 0x00
T3F58 001:067.548 JLINK_ReadReg(R0)
T3F58 001:067.555 - 0.009ms returns 0x00000000
T3F58 001:067.977 JLINK_HasError()
T3F58 001:067.988 JLINK_WriteReg(R0, 0x00001000)
T3F58 001:067.995 - 0.008ms returns 0
T3F58 001:068.000 JLINK_WriteReg(R1, 0x00001000)
T3F58 001:068.004 - 0.006ms returns 0
T3F58 001:068.009 JLINK_WriteReg(R2, 0x000000FF)
T3F58 001:068.014 - 0.006ms returns 0
T3F58 001:068.018 JLINK_WriteReg(R3, 0x00000000)
T3F58 001:068.023 - 0.006ms returns 0
T3F58 001:068.028 JLINK_WriteReg(R4, 0x00000000)
T3F58 001:068.032 - 0.006ms returns 0
T3F58 001:068.037 JLINK_WriteReg(R5, 0x00000000)
T3F58 001:068.042 - 0.007ms returns 0
T3F58 001:068.047 JLINK_WriteReg(R6, 0x00000000)
T3F58 001:068.051 - 0.006ms returns 0
T3F58 001:068.056 JLINK_WriteReg(R7, 0x00000000)
T3F58 001:068.060 - 0.006ms returns 0
T3F58 001:068.065 JLINK_WriteReg(R8, 0x00000000)
T3F58 001:068.069 - 0.006ms returns 0
T3F58 001:068.074 JLINK_WriteReg(R9, 0x200005B4)
T3F58 001:068.078 - 0.006ms returns 0
T3F58 001:068.083 JLINK_WriteReg(R10, 0x00000000)
T3F58 001:068.087 - 0.006ms returns 0
T3F58 001:068.097 JLINK_WriteReg(R11, 0x00000000)
T3F58 001:068.105 - 0.010ms returns 0
T3F58 001:068.110 JLINK_WriteReg(R12, 0x00000000)
T3F58 001:068.114 - 0.006ms returns 0
T3F58 001:068.119 JLINK_WriteReg(R13 (SP), 0x20004000)
T3F58 001:068.124 - 0.006ms returns 0
T3F58 001:068.129 JLINK_WriteReg(R14, 0x20000001)
T3F58 001:068.133 - 0.006ms returns 0
T3F58 001:068.138 JLINK_WriteReg(R15 (PC), 0x20000288)
T3F58 001:068.143 - 0.006ms returns 0
T3F58 001:068.147 JLINK_WriteReg(XPSR, 0x01000000)
T3F58 001:068.152 - 0.006ms returns 0
T3F58 001:068.157 JLINK_WriteReg(MSP, 0x20004000)
T3F58 001:068.161 - 0.006ms returns 0
T3F58 001:068.166 JLINK_WriteReg(PSP, 0x20004000)
T3F58 001:068.170 - 0.006ms returns 0
T3F58 001:068.175 JLINK_WriteReg(CFBP, 0x00000000)
T3F58 001:068.179 - 0.006ms returns 0
T3F58 001:068.184 JLINK_SetBPEx(Addr = 0x20000000, Type = 0xFFFFFFF2)
T3F58 001:068.190 - 0.008ms returns 0x00000004
T3F58 001:068.195 JLINK_Go()
T3F58 001:068.210   CPU_ReadMem(4 bytes @ 0xE0001000)
T3F58 001:076.642 - 8.473ms
T3F58 001:076.679 JLINK_IsHalted()
T3F58 001:084.735   CPU_ReadMem(2 bytes @ 0x20000000)
T3F58 001:085.954 - 9.284ms returns TRUE
T3F58 001:085.973 JLINK_ReadReg(R15 (PC))
T3F58 001:085.986 - 0.017ms returns 0x20000000
T3F58 001:085.997 JLINK_ClrBPEx(BPHandle = 0x00000004)
T3F58 001:086.006 - 0.013ms returns 0x00
T3F58 001:086.016 JLINK_ReadReg(R0)
T3F58 001:086.025 - 0.012ms returns 0x00000001
T3F58 001:086.035 JLINK_HasError()
T3F58 001:086.045 JLINK_WriteReg(R0, 0x00001000)
T3F58 001:086.055 - 0.013ms returns 0
T3F58 001:086.064 JLINK_WriteReg(R1, 0x00001000)
T3F58 001:086.072 - 0.012ms returns 0
T3F58 001:086.082 JLINK_WriteReg(R2, 0x000000FF)
T3F58 001:086.091 - 0.012ms returns 0
T3F58 001:086.100 JLINK_WriteReg(R3, 0x00000000)
T3F58 001:086.108 - 0.012ms returns 0
T3F58 001:086.117 JLINK_WriteReg(R4, 0x00000000)
T3F58 001:086.126 - 0.012ms returns 0
T3F58 001:086.135 JLINK_WriteReg(R5, 0x00000000)
T3F58 001:086.143 - 0.012ms returns 0
T3F58 001:086.152 JLINK_WriteReg(R6, 0x00000000)
T3F58 001:086.161 - 0.012ms returns 0
T3F58 001:086.170 JLINK_WriteReg(R7, 0x00000000)
T3F58 001:086.179 - 0.012ms returns 0
T3F58 001:086.188 JLINK_WriteReg(R8, 0x00000000)
T3F58 001:086.197 - 0.013ms returns 0
T3F58 001:086.207 JLINK_WriteReg(R9, 0x200005B4)
T3F58 001:086.215 - 0.012ms returns 0
T3F58 001:086.225 JLINK_WriteReg(R10, 0x00000000)
T3F58 001:086.233 - 0.012ms returns 0
T3F58 001:086.243 JLINK_WriteReg(R11, 0x00000000)
T3F58 001:086.251 - 0.012ms returns 0
T3F58 001:086.261 JLINK_WriteReg(R12, 0x00000000)
T3F58 001:086.269 - 0.012ms returns 0
T3F58 001:086.279 JLINK_WriteReg(R13 (SP), 0x20004000)
T3F58 001:086.288 - 0.012ms returns 0
T3F58 001:086.297 JLINK_WriteReg(R14, 0x20000001)
T3F58 001:086.306 - 0.013ms returns 0
T3F58 001:086.316 JLINK_WriteReg(R15 (PC), 0x200000D4)
T3F58 001:086.324 - 0.012ms returns 0
T3F58 001:086.334 JLINK_WriteReg(XPSR, 0x01000000)
T3F58 001:086.342 - 0.012ms returns 0
T3F58 001:086.352 JLINK_WriteReg(MSP, 0x20004000)
T3F58 001:086.360 - 0.012ms returns 0
T3F58 001:086.370 JLINK_WriteReg(PSP, 0x20004000)
T3F58 001:086.378 - 0.012ms returns 0
T3F58 001:086.388 JLINK_WriteReg(CFBP, 0x00000000)
T3F58 001:086.396 - 0.012ms returns 0
T3F58 001:086.406 JLINK_SetBPEx(Addr = 0x20000000, Type = 0xFFFFFFF2)
T3F58 001:086.416 - 0.014ms returns 0x00000005
T3F58 001:086.426 JLINK_Go()
T3F58 001:086.443   CPU_ReadMem(4 bytes @ 0xE0001000)
T3F58 001:095.167 - 8.769ms
T3F58 001:095.215 JLINK_IsHalted()
T3F58 001:096.431 - 1.224ms returns FALSE
T3F58 001:096.452 JLINK_HasError()
T3F58 001:100.187 JLINK_IsHalted()
T3F58 001:108.291   CPU_ReadMem(2 bytes @ 0x20000000)
T3F58 001:109.439 - 9.287ms returns TRUE
T3F58 001:109.500 JLINK_ReadReg(R15 (PC))
T3F58 001:109.514 - 0.019ms returns 0x20000000
T3F58 001:109.526 JLINK_ClrBPEx(BPHandle = 0x00000005)
T3F58 001:109.535 - 0.013ms returns 0x00
T3F58 001:109.546 JLINK_ReadReg(R0)
T3F58 001:109.555 - 0.013ms returns 0x00000000
T3F58 001:110.322 JLINK_HasError()
T3F58 001:110.356 JLINK_WriteReg(R0, 0x00002000)
T3F58 001:110.373 - 0.021ms returns 0
T3F58 001:110.384 JLINK_WriteReg(R1, 0x00001000)
T3F58 001:110.393 - 0.013ms returns 0
T3F58 001:110.403 JLINK_WriteReg(R2, 0x000000FF)
T3F58 001:110.411 - 0.013ms returns 0
T3F58 001:110.421 JLINK_WriteReg(R3, 0x00000000)
T3F58 001:110.430 - 0.013ms returns 0
T3F58 001:110.441 JLINK_WriteReg(R4, 0x00000000)
T3F58 001:110.449 - 0.013ms returns 0
T3F58 001:110.459 JLINK_WriteReg(R5, 0x00000000)
T3F58 001:110.468 - 0.013ms returns 0
T3F58 001:110.478 JLINK_WriteReg(R6, 0x00000000)
T3F58 001:110.487 - 0.013ms returns 0
T3F58 001:110.496 JLINK_WriteReg(R7, 0x00000000)
T3F58 001:110.505 - 0.012ms returns 0
T3F58 001:110.515 JLINK_WriteReg(R8, 0x00000000)
T3F58 001:110.524 - 0.013ms returns 0
T3F58 001:110.533 JLINK_WriteReg(R9, 0x200005B4)
T3F58 001:110.542 - 0.013ms returns 0
T3F58 001:110.552 JLINK_WriteReg(R10, 0x00000000)
T3F58 001:110.561 - 0.013ms returns 0
T3F58 001:110.571 JLINK_WriteReg(R11, 0x00000000)
T3F58 001:110.580 - 0.013ms returns 0
T3F58 001:110.590 JLINK_WriteReg(R12, 0x00000000)
T3F58 001:110.599 - 0.013ms returns 0
T3F58 001:110.608 JLINK_WriteReg(R13 (SP), 0x20004000)
T3F58 001:110.618 - 0.014ms returns 0
T3F58 001:110.628 JLINK_WriteReg(R14, 0x20000001)
T3F58 001:110.637 - 0.013ms returns 0
T3F58 001:110.647 JLINK_WriteReg(R15 (PC), 0x20000288)
T3F58 001:110.658 - 0.014ms returns 0
T3F58 001:110.668 JLINK_WriteReg(XPSR, 0x01000000)
T3F58 001:110.677 - 0.013ms returns 0
T3F58 001:110.687 JLINK_WriteReg(MSP, 0x20004000)
T3F58 001:110.696 - 0.013ms returns 0
T3F58 001:110.705 JLINK_WriteReg(PSP, 0x20004000)
T3F58 001:110.714 - 0.013ms returns 0
T3F58 001:110.724 JLINK_WriteReg(CFBP, 0x00000000)
T3F58 001:110.733 - 0.013ms returns 0
T3F58 001:110.743 JLINK_SetBPEx(Addr = 0x20000000, Type = 0xFFFFFFF2)
T3F58 001:110.753 - 0.014ms returns 0x00000006
T3F58 001:110.763 JLINK_Go()
T3F58 001:110.782   CPU_ReadMem(4 bytes @ 0xE0001000)
T3F58 001:119.323 - 8.587ms
T3F58 001:119.366 JLINK_IsHalted()
T3F58 001:127.472   CPU_ReadMem(2 bytes @ 0x20000000)
T3F58 001:128.581 - 9.244ms returns TRUE
T3F58 001:128.633 JLINK_ReadReg(R15 (PC))
T3F58 001:128.648 - 0.019ms returns 0x20000000
T3F58 001:128.658 JLINK_ClrBPEx(BPHandle = 0x00000006)
T3F58 001:128.666 - 0.012ms returns 0x00
T3F58 001:128.676 JLINK_ReadReg(R0)
T3F58 001:128.684 - 0.011ms returns 0x00000001
T3F58 001:128.696 JLINK_HasError()
T3F58 001:128.705 JLINK_WriteReg(R0, 0x00002000)
T3F58 001:128.714 - 0.012ms returns 0
T3F58 001:128.723 JLINK_WriteReg(R1, 0x00001000)
T3F58 001:128.731 - 0.011ms returns 0
T3F58 001:128.739 JLINK_WriteReg(R2, 0x000000FF)
T3F58 001:128.747 - 0.011ms returns 0
T3F58 001:128.757 JLINK_WriteReg(R3, 0x00000000)
T3F58 001:128.765 - 0.011ms returns 0
T3F58 001:128.776 JLINK_WriteReg(R4, 0x00000000)
T3F58 001:128.784 - 0.011ms returns 0
T3F58 001:128.794 JLINK_WriteReg(R5, 0x00000000)
T3F58 001:128.802 - 0.011ms returns 0
T3F58 001:128.812 JLINK_WriteReg(R6, 0x00000000)
T3F58 001:128.820 - 0.011ms returns 0
T3F58 001:128.828 JLINK_WriteReg(R7, 0x00000000)
T3F58 001:128.836 - 0.011ms returns 0
T3F58 001:128.845 JLINK_WriteReg(R8, 0x00000000)
T3F58 001:128.853 - 0.011ms returns 0
T3F58 001:128.861 JLINK_WriteReg(R9, 0x200005B4)
T3F58 001:128.869 - 0.011ms returns 0
T3F58 001:128.879 JLINK_WriteReg(R10, 0x00000000)
T3F58 001:128.887 - 0.011ms returns 0
T3F58 001:128.897 JLINK_WriteReg(R11, 0x00000000)
T3F58 001:128.905 - 0.011ms returns 0
T3F58 001:128.915 JLINK_WriteReg(R12, 0x00000000)
T3F58 001:128.923 - 0.011ms returns 0
T3F58 001:128.932 JLINK_WriteReg(R13 (SP), 0x20004000)
T3F58 001:128.939 - 0.012ms returns 0
T3F58 001:128.948 JLINK_WriteReg(R14, 0x20000001)
T3F58 001:128.956 - 0.011ms returns 0
T3F58 001:128.965 JLINK_WriteReg(R15 (PC), 0x200000D4)
T3F58 001:128.972 - 0.011ms returns 0
T3F58 001:128.982 JLINK_WriteReg(XPSR, 0x01000000)
T3F58 001:128.990 - 0.011ms returns 0
T3F58 001:129.001 JLINK_WriteReg(MSP, 0x20004000)
T3F58 001:129.009 - 0.011ms returns 0
T3F58 001:129.026 JLINK_WriteReg(PSP, 0x20004000)
T3F58 001:129.038 - 0.015ms returns 0
T3F58 001:129.048 JLINK_WriteReg(CFBP, 0x00000000)
T3F58 001:129.056 - 0.011ms returns 0
T3F58 001:129.067 JLINK_SetBPEx(Addr = 0x20000000, Type = 0xFFFFFFF2)
T3F58 001:129.075 - 0.012ms returns 0x00000007
T3F58 001:129.086 JLINK_Go()
T3F58 001:129.103   CPU_ReadMem(4 bytes @ 0xE0001000)
T3F58 001:137.561 - 8.497ms
T3F58 001:137.604 JLINK_IsHalted()
T3F58 001:138.766 - 1.176ms returns FALSE
T3F58 001:138.801 JLINK_HasError()
T3F58 001:146.698 JLINK_IsHalted()
T3F58 001:154.737   CPU_ReadMem(2 bytes @ 0x20000000)
T3F58 001:156.140 - 9.455ms returns TRUE
T3F58 001:156.164 JLINK_ReadReg(R15 (PC))
T3F58 001:156.179 - 0.020ms returns 0x20000000
T3F58 001:156.190 JLINK_ClrBPEx(BPHandle = 0x00000007)
T3F58 001:156.200 - 0.014ms returns 0x00
T3F58 001:156.210 JLINK_ReadReg(R0)
T3F58 001:156.219 - 0.013ms returns 0x00000000
T3F58 001:156.920 JLINK_HasError()
T3F58 001:156.946 JLINK_WriteReg(R0, 0x00003000)
T3F58 001:156.955 - 0.011ms returns 0
T3F58 001:156.961 JLINK_WriteReg(R1, 0x00001000)
T3F58 001:156.965 - 0.006ms returns 0
T3F58 001:156.970 JLINK_WriteReg(R2, 0x000000FF)
T3F58 001:156.974 - 0.006ms returns 0
T3F58 001:156.979 JLINK_WriteReg(R3, 0x00000000)
T3F58 001:156.984 - 0.007ms returns 0
T3F58 001:156.989 JLINK_WriteReg(R4, 0x00000000)
T3F58 001:156.993 - 0.006ms returns 0
T3F58 001:156.998 JLINK_WriteReg(R5, 0x00000000)
T3F58 001:157.002 - 0.006ms returns 0
T3F58 001:157.007 JLINK_WriteReg(R6, 0x00000000)
T3F58 001:157.012 - 0.006ms returns 0
T3F58 001:157.016 JLINK_WriteReg(R7, 0x00000000)
T3F58 001:157.021 - 0.006ms returns 0
T3F58 001:157.025 JLINK_WriteReg(R8, 0x00000000)
T3F58 001:157.030 - 0.006ms returns 0
T3F58 001:157.035 JLINK_WriteReg(R9, 0x200005B4)
T3F58 001:157.039 - 0.006ms returns 0
T3F58 001:157.044 JLINK_WriteReg(R10, 0x00000000)
T3F58 001:157.048 - 0.006ms returns 0
T3F58 001:157.053 JLINK_WriteReg(R11, 0x00000000)
T3F58 001:157.057 - 0.006ms returns 0
T3F58 001:157.062 JLINK_WriteReg(R12, 0x00000000)
T3F58 001:157.066 - 0.006ms returns 0
T3F58 001:157.071 JLINK_WriteReg(R13 (SP), 0x20004000)
T3F58 001:157.076 - 0.007ms returns 0
T3F58 001:157.081 JLINK_WriteReg(R14, 0x20000001)
T3F58 001:157.085 - 0.006ms returns 0
T3F58 001:157.090 JLINK_WriteReg(R15 (PC), 0x20000288)
T3F58 001:157.094 - 0.006ms returns 0
T3F58 001:157.099 JLINK_WriteReg(XPSR, 0x01000000)
T3F58 001:157.103 - 0.006ms returns 0
T3F58 001:157.108 JLINK_WriteReg(MSP, 0x20004000)
T3F58 001:157.112 - 0.006ms returns 0
T3F58 001:157.117 JLINK_WriteReg(PSP, 0x20004000)
T3F58 001:157.121 - 0.006ms returns 0
T3F58 001:157.126 JLINK_WriteReg(CFBP, 0x00000000)
T3F58 001:157.130 - 0.006ms returns 0
T3F58 001:157.135 JLINK_SetBPEx(Addr = 0x20000000, Type = 0xFFFFFFF2)
T3F58 001:157.141 - 0.008ms returns 0x00000008
T3F58 001:157.147 JLINK_Go()
T3F58 001:157.160   CPU_ReadMem(4 bytes @ 0xE0001000)
T3F58 001:165.655 - 8.550ms
T3F58 001:165.709 JLINK_IsHalted()
T3F58 001:173.839   CPU_ReadMem(2 bytes @ 0x20000000)
T3F58 001:174.929 - 9.239ms returns TRUE
T3F58 001:175.013 JLINK_ReadReg(R15 (PC))
T3F58 001:175.030 - 0.019ms returns 0x20000000
T3F58 001:175.036 JLINK_ClrBPEx(BPHandle = 0x00000008)
T3F58 001:175.041 - 0.007ms returns 0x00
T3F58 001:175.051 JLINK_ReadReg(R0)
T3F58 001:175.056 - 0.006ms returns 0x00000001
T3F58 001:175.062 JLINK_HasError()
T3F58 001:175.067 JLINK_WriteReg(R0, 0x00003000)
T3F58 001:175.073 - 0.007ms returns 0
T3F58 001:175.078 JLINK_WriteReg(R1, 0x00001000)
T3F58 001:175.082 - 0.006ms returns 0
T3F58 001:175.087 JLINK_WriteReg(R2, 0x000000FF)
T3F58 001:175.091 - 0.006ms returns 0
T3F58 001:175.096 JLINK_WriteReg(R3, 0x00000000)
T3F58 001:175.100 - 0.006ms returns 0
T3F58 001:175.105 JLINK_WriteReg(R4, 0x00000000)
T3F58 001:175.109 - 0.006ms returns 0
T3F58 001:175.114 JLINK_WriteReg(R5, 0x00000000)
T3F58 001:175.118 - 0.006ms returns 0
T3F58 001:175.123 JLINK_WriteReg(R6, 0x00000000)
T3F58 001:175.127 - 0.006ms returns 0
T3F58 001:175.132 JLINK_WriteReg(R7, 0x00000000)
T3F58 001:175.186 - 0.055ms returns 0
T3F58 001:175.191 JLINK_WriteReg(R8, 0x00000000)
T3F58 001:175.195 - 0.006ms returns 0
T3F58 001:175.200 JLINK_WriteReg(R9, 0x200005B4)
T3F58 001:175.204 - 0.006ms returns 0
T3F58 001:175.209 JLINK_WriteReg(R10, 0x00000000)
T3F58 001:175.213 - 0.006ms returns 0
T3F58 001:175.218 JLINK_WriteReg(R11, 0x00000000)
T3F58 001:175.222 - 0.006ms returns 0
T3F58 001:175.227 JLINK_WriteReg(R12, 0x00000000)
T3F58 001:175.231 - 0.006ms returns 0
T3F58 001:175.236 JLINK_WriteReg(R13 (SP), 0x20004000)
T3F58 001:175.241 - 0.006ms returns 0
T3F58 001:175.246 JLINK_WriteReg(R14, 0x20000001)
T3F58 001:175.250 - 0.006ms returns 0
T3F58 001:175.255 JLINK_WriteReg(R15 (PC), 0x200000D4)
T3F58 001:175.259 - 0.006ms returns 0
T3F58 001:175.264 JLINK_WriteReg(XPSR, 0x01000000)
T3F58 001:175.269 - 0.006ms returns 0
T3F58 001:175.273 JLINK_WriteReg(MSP, 0x20004000)
T3F58 001:175.278 - 0.006ms returns 0
T3F58 001:175.282 JLINK_WriteReg(PSP, 0x20004000)
T3F58 001:175.287 - 0.006ms returns 0
T3F58 001:175.291 JLINK_WriteReg(CFBP, 0x00000000)
T3F58 001:175.296 - 0.006ms returns 0
T3F58 001:175.301 JLINK_SetBPEx(Addr = 0x20000000, Type = 0xFFFFFFF2)
T3F58 001:175.306 - 0.007ms returns 0x00000009
T3F58 001:175.311 JLINK_Go()
T3F58 001:175.322   CPU_ReadMem(4 bytes @ 0xE0001000)
T3F58 001:183.671 - 8.390ms
T3F58 001:183.714 JLINK_IsHalted()
T3F58 001:184.960 - 1.283ms returns FALSE
T3F58 001:185.016 JLINK_HasError()
T3F58 001:189.584 JLINK_IsHalted()
T3F58 001:197.710   CPU_ReadMem(2 bytes @ 0x20000000)
T3F58 001:198.911 - 9.344ms returns TRUE
T3F58 001:198.935 JLINK_ReadReg(R15 (PC))
T3F58 001:198.945 - 0.011ms returns 0x20000000
T3F58 001:198.950 JLINK_ClrBPEx(BPHandle = 0x00000009)
T3F58 001:198.955 - 0.007ms returns 0x00
T3F58 001:198.960 JLINK_ReadReg(R0)
T3F58 001:198.964 - 0.006ms returns 0x00000000
T3F58 001:199.371 JLINK_HasError()
T3F58 001:199.382 JLINK_WriteReg(R0, 0x00004000)
T3F58 001:199.388 - 0.008ms returns 0
T3F58 001:199.393 JLINK_WriteReg(R1, 0x00001000)
T3F58 001:199.398 - 0.006ms returns 0
T3F58 001:199.403 JLINK_WriteReg(R2, 0x000000FF)
T3F58 001:199.407 - 0.006ms returns 0
T3F58 001:199.412 JLINK_WriteReg(R3, 0x00000000)
T3F58 001:199.416 - 0.006ms returns 0
T3F58 001:199.421 JLINK_WriteReg(R4, 0x00000000)
T3F58 001:199.425 - 0.006ms returns 0
T3F58 001:199.430 JLINK_WriteReg(R5, 0x00000000)
T3F58 001:199.434 - 0.006ms returns 0
T3F58 001:199.439 JLINK_WriteReg(R6, 0x00000000)
T3F58 001:199.443 - 0.006ms returns 0
T3F58 001:199.448 JLINK_WriteReg(R7, 0x00000000)
T3F58 001:199.452 - 0.006ms returns 0
T3F58 001:199.458 JLINK_WriteReg(R8, 0x00000000)
T3F58 001:199.462 - 0.006ms returns 0
T3F58 001:199.467 JLINK_WriteReg(R9, 0x200005B4)
T3F58 001:199.471 - 0.006ms returns 0
T3F58 001:199.476 JLINK_WriteReg(R10, 0x00000000)
T3F58 001:199.480 - 0.006ms returns 0
T3F58 001:199.485 JLINK_WriteReg(R11, 0x00000000)
T3F58 001:199.489 - 0.006ms returns 0
T3F58 001:199.494 JLINK_WriteReg(R12, 0x00000000)
T3F58 001:199.498 - 0.006ms returns 0
T3F58 001:199.503 JLINK_WriteReg(R13 (SP), 0x20004000)
T3F58 001:199.508 - 0.006ms returns 0
T3F58 001:199.513 JLINK_WriteReg(R14, 0x20000001)
T3F58 001:199.517 - 0.006ms returns 0
T3F58 001:199.522 JLINK_WriteReg(R15 (PC), 0x20000288)
T3F58 001:199.527 - 0.006ms returns 0
T3F58 001:199.531 JLINK_WriteReg(XPSR, 0x01000000)
T3F58 001:199.536 - 0.006ms returns 0
T3F58 001:199.540 JLINK_WriteReg(MSP, 0x20004000)
T3F58 001:199.545 - 0.006ms returns 0
T3F58 001:199.550 JLINK_WriteReg(PSP, 0x20004000)
T3F58 001:199.554 - 0.006ms returns 0
T3F58 001:199.559 JLINK_WriteReg(CFBP, 0x00000000)
T3F58 001:199.563 - 0.006ms returns 0
T3F58 001:199.568 JLINK_SetBPEx(Addr = 0x20000000, Type = 0xFFFFFFF2)
T3F58 001:199.573 - 0.007ms returns 0x0000000A
T3F58 001:199.578 JLINK_Go()
T3F58 001:199.589   CPU_ReadMem(4 bytes @ 0xE0001000)
T3F58 001:208.370 - 8.809ms
T3F58 001:208.406 JLINK_IsHalted()
T3F58 001:216.679   CPU_ReadMem(2 bytes @ 0x20000000)
T3F58 001:218.037 - 9.654ms returns TRUE
T3F58 001:218.078 JLINK_ReadReg(R15 (PC))
T3F58 001:218.089 - 0.012ms returns 0x20000000
T3F58 001:218.095 JLINK_ClrBPEx(BPHandle = 0x0000000A)
T3F58 001:218.100 - 0.006ms returns 0x00
T3F58 001:218.201 JLINK_ReadReg(R0)
T3F58 001:218.219 - 0.020ms returns 0x00000001
T3F58 001:218.226 JLINK_HasError()
T3F58 001:218.232 JLINK_WriteReg(R0, 0x00004000)
T3F58 001:218.237 - 0.007ms returns 0
T3F58 001:218.242 JLINK_WriteReg(R1, 0x00001000)
T3F58 001:218.247 - 0.006ms returns 0
T3F58 001:218.252 JLINK_WriteReg(R2, 0x000000FF)
T3F58 001:218.256 - 0.006ms returns 0
T3F58 001:218.261 JLINK_WriteReg(R3, 0x00000000)
T3F58 001:218.265 - 0.006ms returns 0
T3F58 001:218.270 JLINK_WriteReg(R4, 0x00000000)
T3F58 001:218.274 - 0.006ms returns 0
T3F58 001:218.279 JLINK_WriteReg(R5, 0x00000000)
T3F58 001:218.284 - 0.007ms returns 0
T3F58 001:218.289 JLINK_WriteReg(R6, 0x00000000)
T3F58 001:218.293 - 0.006ms returns 0
T3F58 001:218.298 JLINK_WriteReg(R7, 0x00000000)
T3F58 001:218.302 - 0.006ms returns 0
T3F58 001:218.307 JLINK_WriteReg(R8, 0x00000000)
T3F58 001:218.312 - 0.006ms returns 0
T3F58 001:218.317 JLINK_WriteReg(R9, 0x200005B4)
T3F58 001:218.321 - 0.006ms returns 0
T3F58 001:218.326 JLINK_WriteReg(R10, 0x00000000)
T3F58 001:218.330 - 0.006ms returns 0
T3F58 001:218.335 JLINK_WriteReg(R11, 0x00000000)
T3F58 001:218.339 - 0.006ms returns 0
T3F58 001:218.345 JLINK_WriteReg(R12, 0x00000000)
T3F58 001:218.349 - 0.006ms returns 0
T3F58 001:218.354 JLINK_WriteReg(R13 (SP), 0x20004000)
T3F58 001:218.359 - 0.006ms returns 0
T3F58 001:218.363 JLINK_WriteReg(R14, 0x20000001)
T3F58 001:218.368 - 0.006ms returns 0
T3F58 001:218.372 JLINK_WriteReg(R15 (PC), 0x200000D4)
T3F58 001:218.377 - 0.006ms returns 0
T3F58 001:218.382 JLINK_WriteReg(XPSR, 0x01000000)
T3F58 001:218.386 - 0.006ms returns 0
T3F58 001:218.391 JLINK_WriteReg(MSP, 0x20004000)
T3F58 001:218.395 - 0.006ms returns 0
T3F58 001:218.400 JLINK_WriteReg(PSP, 0x20004000)
T3F58 001:218.404 - 0.006ms returns 0
T3F58 001:218.409 JLINK_WriteReg(CFBP, 0x00000000)
T3F58 001:218.413 - 0.006ms returns 0
T3F58 001:218.419 JLINK_SetBPEx(Addr = 0x20000000, Type = 0xFFFFFFF2)
T3F58 001:218.424 - 0.007ms returns 0x0000000B
T3F58 001:218.429 JLINK_Go()
T3F58 001:218.444   CPU_ReadMem(4 bytes @ 0xE0001000)
T3F58 001:226.863 - 8.461ms
T3F58 001:226.902 JLINK_IsHalted()
T3F58 001:228.067 - 1.201ms returns FALSE
T3F58 001:228.115 JLINK_HasError()
T3F58 001:233.431 JLINK_IsHalted()
T3F58 001:241.533   CPU_ReadMem(2 bytes @ 0x20000000)
T3F58 001:242.734 - 9.314ms returns TRUE
T3F58 001:242.756 JLINK_ReadReg(R15 (PC))
T3F58 001:242.769 - 0.017ms returns 0x20000000
T3F58 001:242.779 JLINK_ClrBPEx(BPHandle = 0x0000000B)
T3F58 001:242.788 - 0.013ms returns 0x00
T3F58 001:242.798 JLINK_ReadReg(R0)
T3F58 001:242.807 - 0.013ms returns 0x00000000
T3F58 001:243.315 JLINK_HasError()
T3F58 001:243.337 JLINK_WriteReg(R0, 0x00000001)
T3F58 001:243.346 - 0.011ms returns 0
T3F58 001:243.353 JLINK_WriteReg(R1, 0x00001000)
T3F58 001:243.357 - 0.006ms returns 0
T3F58 001:243.362 JLINK_WriteReg(R2, 0x000000FF)
T3F58 001:243.367 - 0.006ms returns 0
T3F58 001:243.371 JLINK_WriteReg(R3, 0x00000000)
T3F58 001:243.376 - 0.006ms returns 0
T3F58 001:243.381 JLINK_WriteReg(R4, 0x00000000)
T3F58 001:243.385 - 0.006ms returns 0
T3F58 001:243.390 JLINK_WriteReg(R5, 0x00000000)
T3F58 001:243.394 - 0.006ms returns 0
T3F58 001:243.399 JLINK_WriteReg(R6, 0x00000000)
T3F58 001:243.403 - 0.006ms returns 0
T3F58 001:243.408 JLINK_WriteReg(R7, 0x00000000)
T3F58 001:243.412 - 0.007ms returns 0
T3F58 001:243.418 JLINK_WriteReg(R8, 0x00000000)
T3F58 001:243.422 - 0.006ms returns 0
T3F58 001:243.427 JLINK_WriteReg(R9, 0x200005B4)
T3F58 001:243.431 - 0.006ms returns 0
T3F58 001:243.436 JLINK_WriteReg(R10, 0x00000000)
T3F58 001:243.440 - 0.006ms returns 0
T3F58 001:243.445 JLINK_WriteReg(R11, 0x00000000)
T3F58 001:243.449 - 0.006ms returns 0
T3F58 001:243.454 JLINK_WriteReg(R12, 0x00000000)
T3F58 001:243.458 - 0.006ms returns 0
T3F58 001:243.469 JLINK_WriteReg(R13 (SP), 0x20004000)
T3F58 001:243.476 - 0.009ms returns 0
T3F58 001:243.481 JLINK_WriteReg(R14, 0x20000001)
T3F58 001:243.485 - 0.006ms returns 0
T3F58 001:243.490 JLINK_WriteReg(R15 (PC), 0x20000060)
T3F58 001:243.495 - 0.006ms returns 0
T3F58 001:243.499 JLINK_WriteReg(XPSR, 0x01000000)
T3F58 001:243.504 - 0.006ms returns 0
T3F58 001:243.509 JLINK_WriteReg(MSP, 0x20004000)
T3F58 001:243.513 - 0.006ms returns 0
T3F58 001:243.518 JLINK_WriteReg(PSP, 0x20004000)
T3F58 001:243.522 - 0.006ms returns 0
T3F58 001:243.527 JLINK_WriteReg(CFBP, 0x00000000)
T3F58 001:243.531 - 0.006ms returns 0
T3F58 001:243.536 JLINK_SetBPEx(Addr = 0x20000000, Type = 0xFFFFFFF2)
T3F58 001:243.543 - 0.008ms returns 0x0000000C
T3F58 001:243.548 JLINK_Go()
T3F58 001:243.561   CPU_ReadMem(4 bytes @ 0xE0001000)
T3F58 001:252.252 - 8.722ms
T3F58 001:252.283 JLINK_IsHalted()
T3F58 001:260.534   CPU_ReadMem(2 bytes @ 0x20000000)
T3F58 001:261.618 - 9.353ms returns TRUE
T3F58 001:261.657 JLINK_ReadReg(R15 (PC))
T3F58 001:261.672 - 0.019ms returns 0x20000000
T3F58 001:261.735 JLINK_ClrBPEx(BPHandle = 0x0000000C)
T3F58 001:261.763 - 0.032ms returns 0x00
T3F58 001:261.774 JLINK_ReadReg(R0)
T3F58 001:261.782 - 0.011ms returns 0x00000000
T3F58 001:319.393 JLINK_WriteMem(0x20000000, 0x5B8 Bytes, ...)
T3F58 001:319.420   Data:  00 BE 0A E0 0D 78 2D 06 68 40 08 24 40 00 00 D3 ...
T3F58 001:319.452   CPU_WriteMem(1464 bytes @ 0x20000000)
T3F58 001:362.727 - 43.361ms returns 0x5B8
T3F58 001:362.862 JLINK_HasError()
T3F58 001:362.886 JLINK_WriteReg(R0, 0x00000000)
T3F58 001:362.903 - 0.021ms returns 0
T3F58 001:362.913 JLINK_WriteReg(R1, 0x00B71B00)
T3F58 001:362.922 - 0.013ms returns 0
T3F58 001:362.932 JLINK_WriteReg(R2, 0x00000002)
T3F58 001:362.940 - 0.012ms returns 0
T3F58 001:362.949 JLINK_WriteReg(R3, 0x00000000)
T3F58 001:362.956 - 0.011ms returns 0
T3F58 001:362.966 JLINK_WriteReg(R4, 0x00000000)
T3F58 001:362.974 - 0.011ms returns 0
T3F58 001:362.983 JLINK_WriteReg(R5, 0x00000000)
T3F58 001:362.990 - 0.011ms returns 0
T3F58 001:362.999 JLINK_WriteReg(R6, 0x00000000)
T3F58 001:363.007 - 0.011ms returns 0
T3F58 001:363.017 JLINK_WriteReg(R7, 0x00000000)
T3F58 001:363.025 - 0.012ms returns 0
T3F58 001:363.034 JLINK_WriteReg(R8, 0x00000000)
T3F58 001:363.042 - 0.011ms returns 0
T3F58 001:363.051 JLINK_WriteReg(R9, 0x200005B4)
T3F58 001:363.059 - 0.011ms returns 0
T3F58 001:363.068 JLINK_WriteReg(R10, 0x00000000)
T3F58 001:363.076 - 0.012ms returns 0
T3F58 001:363.085 JLINK_WriteReg(R11, 0x00000000)
T3F58 001:363.093 - 0.011ms returns 0
T3F58 001:363.102 JLINK_WriteReg(R12, 0x00000000)
T3F58 001:363.110 - 0.011ms returns 0
T3F58 001:363.119 JLINK_WriteReg(R13 (SP), 0x20004000)
T3F58 001:363.128 - 0.013ms returns 0
T3F58 001:363.138 JLINK_WriteReg(R14, 0x20000001)
T3F58 001:363.146 - 0.011ms returns 0
T3F58 001:363.155 JLINK_WriteReg(R15 (PC), 0x20000020)
T3F58 001:363.163 - 0.012ms returns 0
T3F58 001:363.172 JLINK_WriteReg(XPSR, 0x01000000)
T3F58 001:363.180 - 0.012ms returns 0
T3F58 001:363.189 JLINK_WriteReg(MSP, 0x20004000)
T3F58 001:363.197 - 0.011ms returns 0
T3F58 001:363.206 JLINK_WriteReg(PSP, 0x20004000)
T3F58 001:363.214 - 0.011ms returns 0
T3F58 001:363.223 JLINK_WriteReg(CFBP, 0x00000000)
T3F58 001:363.230 - 0.011ms returns 0
T3F58 001:363.240 JLINK_SetBPEx(Addr = 0x20000000, Type = 0xFFFFFFF2)
T3F58 001:363.255   CPU_ReadMem(2 bytes @ 0x20000000)
T3F58 001:364.592 - 1.364ms returns 0x0000000D
T3F58 001:364.612 JLINK_Go()
T3F58 001:364.625   CPU_WriteMem(2 bytes @ 0x20000000)
T3F58 001:365.844   CPU_ReadMem(4 bytes @ 0xE0001000)
T3F58 001:374.372 - 9.778ms
T3F58 001:374.520 JLINK_IsHalted()
T3F58 001:382.794   CPU_ReadMem(2 bytes @ 0x20000000)
T3F58 001:384.080 - 9.591ms returns TRUE
T3F58 001:384.120 JLINK_ReadReg(R15 (PC))
T3F58 001:384.132 - 0.013ms returns 0x20000000
T3F58 001:384.137 JLINK_ClrBPEx(BPHandle = 0x0000000D)
T3F58 001:384.143 - 0.007ms returns 0x00
T3F58 001:384.148 JLINK_ReadReg(R0)
T3F58 001:384.153 - 0.006ms returns 0x00000000
T3F58 001:384.473 JLINK_WriteMem(0x200005C8, 0x238 Bytes, ...)
T3F58 001:384.486   Data:  60 31 00 20 FD 02 00 00 05 03 00 00 07 03 00 00 ...
T3F58 001:384.502   CPU_WriteMem(568 bytes @ 0x200005C8)
T3F58 001:402.356 - 17.907ms returns 0x238
T3F58 001:402.397 JLINK_WriteMem(0x20000800, 0x400 Bytes, ...)
T3F58 001:402.403   Data:  40 EA 01 05 44 E8 00 53 00 2B F7 D1 15 60 30 BC ...
T3F58 001:402.424   CPU_WriteMem(1024 bytes @ 0x20000800)
T3F58 001:433.249 - 30.894ms returns 0x400
T3F58 001:433.317 JLINK_WriteMem(0x20000C00, 0x400 Bytes, ...)
T3F58 001:433.327   Data:  0C F1 04 06 3F 25 35 60 55 1C 04 D0 16 46 0D 46 ...
T3F58 001:433.360   CPU_WriteMem(1024 bytes @ 0x20000C00)
T3F58 001:464.041 - 30.744ms returns 0x400
T3F58 001:464.078 JLINK_WriteMem(0x20001000, 0x400 Bytes, ...)
T3F58 001:464.083   Data:  72 6F 72 00 F0 ED 00 E0 53 79 73 74 65 6D 20 72 ...
T3F58 001:464.108   CPU_WriteMem(1024 bytes @ 0x20001000)
T3F58 001:494.717 - 30.680ms returns 0x400
T3F58 001:494.793 JLINK_WriteMem(0x20001400, 0x1C8 Bytes, ...)
T3F58 001:494.809   Data:  79 F8 00 BF 01 F0 08 FF 00 28 FB D1 34 E0 20 46 ...
T3F58 001:494.845   CPU_WriteMem(456 bytes @ 0x20001400)
T3F58 001:527.996 - 33.243ms returns 0x1C8
T3F58 001:528.050 JLINK_HasError()
T3F58 001:528.099 JLINK_WriteReg(R0, 0x00000000)
T3F58 001:528.118 - 0.021ms returns 0
T3F58 001:528.124 JLINK_WriteReg(R1, 0x00001000)
T3F58 001:528.128 - 0.007ms returns 0
T3F58 001:528.134 JLINK_WriteReg(R2, 0x200005C8)
T3F58 001:528.138 - 0.006ms returns 0
T3F58 001:528.143 JLINK_WriteReg(R3, 0x00000000)
T3F58 001:528.147 - 0.006ms returns 0
T3F58 001:528.152 JLINK_WriteReg(R4, 0x00000000)
T3F58 001:528.156 - 0.006ms returns 0
T3F58 001:528.161 JLINK_WriteReg(R5, 0x00000000)
T3F58 001:528.165 - 0.006ms returns 0
T3F58 001:528.170 JLINK_WriteReg(R6, 0x00000000)
T3F58 001:528.175 - 0.007ms returns 0
T3F58 001:528.180 JLINK_WriteReg(R7, 0x00000000)
T3F58 001:528.184 - 0.005ms returns 0
T3F58 001:528.188 JLINK_WriteReg(R8, 0x00000000)
T3F58 001:528.192 - 0.005ms returns 0
T3F58 001:528.197 JLINK_WriteReg(R9, 0x200005B4)
T3F58 001:528.200 - 0.005ms returns 0
T3F58 001:528.207 JLINK_WriteReg(R10, 0x00000000)
T3F58 001:528.227 - 0.021ms returns 0
T3F58 001:528.231 JLINK_WriteReg(R11, 0x00000000)
T3F58 001:528.236 - 0.006ms returns 0
T3F58 001:528.241 JLINK_WriteReg(R12, 0x00000000)
T3F58 001:528.245 - 0.006ms returns 0
T3F58 001:528.250 JLINK_WriteReg(R13 (SP), 0x20004000)
T3F58 001:528.255 - 0.007ms returns 0
T3F58 001:528.260 JLINK_WriteReg(R14, 0x20000001)
T3F58 001:528.264 - 0.006ms returns 0
T3F58 001:528.269 JLINK_WriteReg(R15 (PC), 0x20000154)
T3F58 001:528.273 - 0.007ms returns 0
T3F58 001:528.279 JLINK_WriteReg(XPSR, 0x01000000)
T3F58 001:528.283 - 0.005ms returns 0
T3F58 001:528.287 JLINK_WriteReg(MSP, 0x20004000)
T3F58 001:528.291 - 0.007ms returns 0
T3F58 001:528.297 JLINK_WriteReg(PSP, 0x20004000)
T3F58 001:528.302 - 0.006ms returns 0
T3F58 001:528.306 JLINK_WriteReg(CFBP, 0x00000000)
T3F58 001:528.311 - 0.006ms returns 0
T3F58 001:528.316 JLINK_SetBPEx(Addr = 0x20000000, Type = 0xFFFFFFF2)
T3F58 001:528.322 - 0.008ms returns 0x0000000E
T3F58 001:528.327 JLINK_Go()
T3F58 001:528.341   CPU_ReadMem(4 bytes @ 0xE0001000)
T3F58 001:536.777 - 8.471ms
T3F58 001:536.808 JLINK_IsHalted()
T3F58 001:537.873 - 1.072ms returns FALSE
T3F58 001:537.889 JLINK_HasError()
T3F58 001:548.095 JLINK_IsHalted()
T3F58 001:549.461 - 1.384ms returns FALSE
T3F58 001:549.488 JLINK_HasError()
T3F58 001:552.283 JLINK_IsHalted()
T3F58 001:553.509 - 1.275ms returns FALSE
T3F58 001:553.577 JLINK_HasError()
T3F58 001:558.004 JLINK_IsHalted()
T3F58 001:559.150 - 1.176ms returns FALSE
T3F58 001:559.204 JLINK_HasError()
T3F58 001:560.582 JLINK_IsHalted()
T3F58 001:561.771 - 1.217ms returns FALSE
T3F58 001:561.805 JLINK_HasError()
T3F58 001:564.864 JLINK_IsHalted()
T3F58 001:566.287 - 1.440ms returns FALSE
T3F58 001:566.310 JLINK_HasError()
T3F58 001:567.900 JLINK_IsHalted()
T3F58 001:569.094 - 1.207ms returns FALSE
T3F58 001:569.122 JLINK_HasError()
T3F58 001:572.338 JLINK_IsHalted()
T3F58 001:573.592 - 1.269ms returns FALSE
T3F58 001:573.616 JLINK_HasError()
T3F58 001:574.724 JLINK_IsHalted()
T3F58 001:685.329   CPU_ReadMem(2 bytes @ 0x20000000)
T3F58 001:686.440 - 111.728ms returns TRUE
T3F58 001:686.468 JLINK_ReadReg(R15 (PC))
T3F58 001:686.477 - 0.010ms returns 0x20000000
T3F58 001:686.482 JLINK_ClrBPEx(BPHandle = 0x0000000E)
T3F58 001:686.487 - 0.006ms returns 0x00
T3F58 001:686.492 JLINK_ReadReg(R0)
T3F58 001:686.498 - 0.007ms returns 0x00000000
T3F58 001:686.904 JLINK_WriteMem(0x200005C8, 0x238 Bytes, ...)
T3F58 001:686.914   Data:  75 72 65 20 73 74 6F 70 70 65 64 3A 20 65 6D 62 ...
T3F58 001:686.927   CPU_WriteMem(568 bytes @ 0x200005C8)
T3F58 001:704.730 - 17.853ms returns 0x238
T3F58 001:704.769 JLINK_WriteMem(0x20000800, 0x400 Bytes, ...)
T3F58 001:704.778   Data:  43 58 39 33 35 31 30 20 46 42 20 72 65 61 64 20 ...
T3F58 001:704.802   CPU_WriteMem(1024 bytes @ 0x20000800)
T3F58 001:735.648 - 30.908ms returns 0x400
T3F58 001:735.744 JLINK_WriteMem(0x20000C00, 0x400 Bytes, ...)
T3F58 001:735.755   Data:  69 46 B0 20 00 F0 CC F8 A0 B1 9D F8 00 00 00 F0 ...
T3F58 001:735.778   CPU_WriteMem(1024 bytes @ 0x20000C00)
T3F58 001:766.457 - 30.765ms returns 0x400
T3F58 001:766.553 JLINK_WriteMem(0x20001000, 0x400 Bytes, ...)
T3F58 001:766.569   Data:  61 64 62 61 63 6B 20 66 61 69 6C 65 64 00 00 00 ...
T3F58 001:766.605   CPU_WriteMem(1024 bytes @ 0x20001000)
T3F58 001:797.330 - 30.811ms returns 0x400
T3F58 001:797.387 JLINK_WriteMem(0x20001400, 0x1C8 Bytes, ...)
T3F58 001:797.413   Data:  10 47 00 00 E8 46 00 00 5B 25 75 20 6D 73 5D 20 ...
T3F58 001:797.451   CPU_WriteMem(456 bytes @ 0x20001400)
T3F58 001:915.632 - 118.280ms returns 0x1C8
T3F58 001:915.697 JLINK_HasError()
T3F58 001:915.711 JLINK_WriteReg(R0, 0x00001000)
T3F58 001:915.729 - 0.023ms returns 0
